
**** 05/15/09 03:03:08 ********* PSpice 9.2 (Mar 2000) ******** ID# 1 ********

 ** Profile: "SCHEMATIC1-FDGFDG"  [ D:\ORCAD\WORKS DIPLOMATIKHS\lag filter-SCHEMATIC1-FDGFDG.sim ] 


 ****     CIRCUIT DESCRIPTION


******************************************************************************




** Creating circuit file "lag filter-SCHEMATIC1-FDGFDG.sim.cir" 
** WARNING: THIS AUTOMATICALLY GENERATED FILE MAY BE OVERWRITTEN BY SUBSEQUENT SIMULATIONS

*Libraries: 
* Local Libraries :
* From [PSPICE NETLIST] section of d:\ORCAD\PSpice\PSpice.ini file:
.lib "nom.lib" 

*Analysis directives: 
.TRAN  0 10ms 0 
.PROBE V(*) I(*) W(*) D(*) NOISE(*) 
.INC ".\lag filter-SCHEMATIC1.net" 



**** INCLUDING "lag filter-SCHEMATIC1.net" ****
* source LAG FILTER
C_C1         0 VC  1n  
R_R1         VSOURCE VC  1k  
V_V1         VSOURCE 0 DC 1V  

**** RESUMING "lag filter-SCHEMATIC1-FDGFDG.sim.cir" ****
.END

**** 05/15/09 03:03:08 ********* PSpice 9.2 (Mar 2000) ******** ID# 1 ********

 ** Profile: "SCHEMATIC1-FDGFDG"  [ D:\ORCAD\WORKS DIPLOMATIKHS\lag filter-SCHEMATIC1-FDGFDG.sim ] 


 ****     INITIAL TRANSIENT SOLUTION       TEMPERATURE =   27.000 DEG C


******************************************************************************



 NODE   VOLTAGE     NODE   VOLTAGE     NODE   VOLTAGE     NODE   VOLTAGE


(   VC)    1.0000  (VSOURCE)    1.0000                   




    VOLTAGE SOURCE CURRENTS
    NAME         CURRENT

    V_V1         0.000E+00

    TOTAL POWER DISSIPATION   0.00E+00  WATTS



          JOB CONCLUDED

          TOTAL JOB TIME             .02
